
T3620 000:301 SEGGER J-Link V4.98e Log File (0002ms, 0281ms total)
T3620 000:301 DLL Compiled: May  5 2015 11:00:52 (0002ms, 0281ms total)
T3620 000:301 Logging started @ 2015-12-05 14:19 (0002ms, 0281ms total)
T3620 000:303 JLINK_SetWarnOutHandler(...) (0000ms, 0281ms total)
T3620 000:303 JLINK_OpenEx(...)
Firmware: J-Link OpenSDA 2 compiled Oct 13 2015 12:10:27
Hardware: V1.00
S/N: 621000000  returns O.K. (0281ms, 0562ms total)
T3620 000:584 JLINK_SetErrorOutHandler(...) (0000ms, 0562ms total)
T3620 000:584 JLINK_ExecCommand("ProjectFile = "C:\Users\dsp6622\Desktop\pepper\JLinkSettings.ini"", ...)  returns 0x00 (0000ms, 0562ms total)
T3620 000:587 JLINK_ExecCommand("Device = MK64FX512xxx12", ...)Device "MK64FX512XXX12" selected.  returns 0x00 (0001ms, 0563ms total)
T3620 000:588 JLINK_ExecCommand("DisableConnectionTimeout", ...)  returns 0x01 (0000ms, 0563ms total)
T3620 000:588 JLINK_GetHardwareVersion()  returns 0x2710 (0000ms, 0563ms total)
T3620 000:588 JLINK_GetDLLVersion()  returns 49805 (0000ms, 0563ms total)
T3620 000:588 JLINK_GetFirmwareString(...) (0000ms, 0563ms total)
T3620 000:590 JLINK_GetDLLVersion()  returns 49805 (0000ms, 0563ms total)
T3620 000:590 JLINK_GetCompileDateTime() (0000ms, 0563ms total)
T3620 000:591 JLINK_GetFirmwareString(...) (0000ms, 0563ms total)
T3620 000:592 JLINK_GetHardwareVersion()  returns 0x2710 (0000ms, 0563ms total)
T3620 000:594 JLINK_TIF_Select(JLINKARM_TIF_SWD)  returns 0x00 (0001ms, 0564ms total)
T3620 000:595 JLINK_SetSpeed(5000) (0000ms, 0564ms total)
T3620 000:595 JLINK_GetId() >0x108 TIF>Found SWD-DP with ID 0x2BA01477 >0x0D TIF> >0x28 TIF> >0x0D TIF> >0x28 TIF> >0x0D TIF> >0x21 TIF> >0x0D TIF> >0x28 TIF> >0x0D TIF> >0x21 TIF> >0x0D TIF> >0x21 TIF> >0x0D TIF> >0x21 TIF> >0x0D TIF> >0x21 TIF> >0x0D TIF> >0x21 TIF> >0x0D TIF> >0x21 TIF> >0x0D TIF> >0x21 TIF> >0x0D TIF> >0x21 TIF> >0x0D TIF> >0x21 TIF> >0x0D TIF> >0x21 TIF> >0x0D TIF> >0x28 TIF> >0x0D TIF> >0x28 TIF> >0x0D TIF> >0x28 TIF> >0x0D TIF> >0x28 TIF> >0x0D TIF> >0x28 TIF> >0x0D TIF>
 >0x28 TIF> >0x0D TIF> >0x28 TIF> >0x0D TIF> >0x21 TIF> >0x0D TIF> >0x21 TIF> >0x0D TIF> >0x28 TIF> >0x108 TIF>Found SWD-DP with ID 0x2BA01477 >0x0D TIF> >0x21 TIF> >0x0D TIF> >0x28 TIF> >0x0D TIF> >0x28 TIF> >0x0D TIF> >0x21 TIF> >0x0D TIF> >0x28 TIF> >0x0D TIF> >0x21 TIF> >0x0D TIF> >0x21 TIF> >0x0D TIF> >0x21 TIF> >0x0D TIF> >0x21 TIF> >0x0D TIF> >0x28 TIF> >0x0D TIF> >0x28 TIF> >0x0D TIF> >0x21 TIF> >0x0D TIF> >0x28 TIF> >0x0D TIF> >0x28 TIF> >0x0D TIF> >0x28 TIF> >0x0D TIF> >0x21 TIF> >0x0D TIF>
 >0x21 TIF> >0x0D TIF> >0x28 TIF> >0x0D TIF> >0x21 TIF> >0x0D TIF> >0x21 TIF>Found Cortex-M4 r0p1, Little endian. -- CPU_WriteMem(4 bytes @ 0xE0002000) -- CPU_ReadMem(4 bytes @ 0xE000EDF0) -- CPU_ReadMem(4 bytes @ 0xE0002000)FPUnit: 6 code (BP) slots and 2 literal slots -- CPU_ReadMem(4 bytes @ 0xE000EDFC) -- CPU_WriteMem(4 bytes @ 0xE000EDFC) -- CPU_ReadMem(4 bytes @ 0xE0001000) -- CPU_WriteMem(4 bytes @ 0xE0001000) -- CPU_ReadMem(4 bytes @ 0xE000ED88) -- CPU_WriteMem(4 bytes @ 0xE000ED88)
 -- CPU_ReadMem(4 bytes @ 0xE000ED88) -- CPU_WriteMem(4 bytes @ 0xE000ED88)CoreSight components:ROMTbl 0 @ E00FF000 -- CPU_ReadMem(16 bytes @ 0xE00FF000) -- CPU_ReadMem(16 bytes @ 0xE000EFF0) -- CPU_ReadMem(16 bytes @ 0xE000EFE0)ROMTbl 0 [0]: FFF0F000, CID: B105E00D, PID: 000BB00C SCS -- CPU_ReadMem(16 bytes @ 0xE0001FF0) -- CPU_ReadMem(16 bytes @ 0xE0001FE0)ROMTbl 0 [1]: FFF02000, CID: B105E00D, PID: 003BB002 DWT -- CPU_ReadMem(16 bytes @ 0xE0002FF0) -- CPU_ReadMem(16 bytes @ 0xE0002FE0)
ROMTbl 0 [2]: FFF03000, CID: B105E00D, PID: 002BB003 FPB -- CPU_ReadMem(16 bytes @ 0xE0000FF0) -- CPU_ReadMem(16 bytes @ 0xE0000FE0)ROMTbl 0 [3]: FFF01000, CID: B105E00D, PID: 003BB001 ITM -- CPU_ReadMem(16 bytes @ 0xE00FF010) -- CPU_ReadMem(16 bytes @ 0xE0040FF0) -- CPU_ReadMem(16 bytes @ 0xE0040FE0)ROMTbl 0 [4]: FFF41000, CID: B105900D, PID: 000BB9A1 TPIU -- CPU_ReadMem(16 bytes @ 0xE0041FF0) -- CPU_ReadMem(16 bytes @ 0xE0041FE0)ROMTbl 0 [5]: FFF42000, CID: B105900D, PID: 000BB925 ETM
 -- CPU_ReadMem(16 bytes @ 0xE0042FF0) -- CPU_ReadMem(16 bytes @ 0xE0042FE0)ROMTbl 0 [6]: FFF43000, CID: B105900D, PID: 003BB907 ETB -- CPU_ReadMem(16 bytes @ 0xE0043FF0) -- CPU_ReadMem(16 bytes @ 0xE0043FE0)ROMTbl 0 [7]: FFF44000, CID: B105900D, PID: 001BB908 CSTF -- CPU_ReadMem(16 bytes @ 0xE00FF020) -- CPU_ReadMem(2 bytes @ 0x40052000) -- CPU_ReadMem(4 bytes @ 0xE0001000) >0x0D TIF> >0x21 TIF>  returns 0x2BA01477 (0081ms, 0645ms total)
T3620 000:676 JLINK_GetDLLVersion()  returns 49805 (0000ms, 0645ms total)
T3620 000:676 JLINK_CORE_GetFound()  returns 0xE0000FF (0000ms, 0645ms total)
T3620 000:676 JLINK_GetDebugInfo(0x100) -- Value=0xE00FF003  returns 0x00 (0000ms, 0645ms total)
T3620 000:678 JLINK_ReadMem (0xE00FF000, 0x0020 Bytes, ...) -- CPU is running -- CPU_ReadMem(32 bytes @ 0xE00FF000) - Data: 03 F0 F0 FF 03 20 F0 FF 03 30 F0 FF 03 10 F0 FF ...  returns 0x00 (0001ms, 0646ms total)
T3620 000:679 JLINK_ReadMem (0xE000EFF0, 0x0010 Bytes, ...) -- CPU is running -- CPU_ReadMem(16 bytes @ 0xE000EFF0) - Data: 0D 00 00 00 E0 00 00 00 05 00 00 00 B1 00 00 00  returns 0x00 (0001ms, 0647ms total)
T3620 000:680 JLINK_ReadMem (0xE000EFD0, 0x0020 Bytes, ...) -- CPU is running -- CPU_ReadMem(32 bytes @ 0xE000EFD0) - Data: 04 00 00 00 00 00 00 00 00 00 00 00 00 00 00 00 ...  returns 0x00 (0001ms, 0648ms total)
T3620 000:681 JLINK_ReadMem (0xE0001FF0, 0x0010 Bytes, ...) -- CPU is running -- CPU_ReadMem(16 bytes @ 0xE0001FF0) - Data: 0D 00 00 00 E0 00 00 00 05 00 00 00 B1 00 00 00  returns 0x00 (0000ms, 0648ms total)
T3620 000:681 JLINK_ReadMem (0xE0001FD0, 0x0020 Bytes, ...) -- CPU is running -- CPU_ReadMem(32 bytes @ 0xE0001FD0) - Data: 04 00 00 00 00 00 00 00 00 00 00 00 00 00 00 00 ...  returns 0x00 (0001ms, 0649ms total)
T3620 000:682 JLINK_ReadMem (0xE0002FF0, 0x0010 Bytes, ...) -- CPU is running -- CPU_ReadMem(16 bytes @ 0xE0002FF0) - Data: 0D 00 00 00 E0 00 00 00 05 00 00 00 B1 00 00 00  returns 0x00 (0001ms, 0650ms total)
T3620 000:683 JLINK_ReadMem (0xE0002FD0, 0x0020 Bytes, ...) -- CPU is running -- CPU_ReadMem(32 bytes @ 0xE0002FD0) - Data: 04 00 00 00 00 00 00 00 00 00 00 00 00 00 00 00 ...  returns 0x00 (0001ms, 0651ms total)
T3620 000:684 JLINK_ReadMem (0xE0000FF0, 0x0010 Bytes, ...) -- CPU is running -- CPU_ReadMem(16 bytes @ 0xE0000FF0) - Data: 0D 00 00 00 E0 00 00 00 05 00 00 00 B1 00 00 00  returns 0x00 (0001ms, 0652ms total)
T3620 000:685 JLINK_ReadMem (0xE0000FD0, 0x0020 Bytes, ...) -- CPU is running -- CPU_ReadMem(32 bytes @ 0xE0000FD0) - Data: 04 00 00 00 00 00 00 00 00 00 00 00 00 00 00 00 ...  returns 0x00 (0001ms, 0653ms total)
T3620 000:686 JLINK_ReadMem (0xE0040FF0, 0x0010 Bytes, ...) -- CPU is running -- CPU_ReadMem(16 bytes @ 0xE0040FF0) - Data: 0D 00 00 00 90 00 00 00 05 00 00 00 B1 00 00 00  returns 0x00 (0001ms, 0654ms total)
T3620 000:687 JLINK_ReadMem (0xE0040FD0, 0x0020 Bytes, ...) -- CPU is running -- CPU_ReadMem(32 bytes @ 0xE0040FD0) - Data: 04 00 00 00 00 00 00 00 00 00 00 00 00 00 00 00 ...  returns 0x00 (0001ms, 0655ms total)
T3620 000:688 JLINK_ReadMem (0xE0041FF0, 0x0010 Bytes, ...) -- CPU is running -- CPU_ReadMem(16 bytes @ 0xE0041FF0) - Data: 0D 00 00 00 90 00 00 00 05 00 00 00 B1 00 00 00  returns 0x00 (0001ms, 0656ms total)
T3620 000:689 JLINK_ReadMem (0xE0041FD0, 0x0020 Bytes, ...) -- CPU is running -- CPU_ReadMem(32 bytes @ 0xE0041FD0) - Data: 04 00 00 00 00 00 00 00 00 00 00 00 00 00 00 00 ...  returns 0x00 (0001ms, 0657ms total)
T3620 000:690 JLINK_ReadMem (0xE0042FF0, 0x0010 Bytes, ...) -- CPU is running -- CPU_ReadMem(16 bytes @ 0xE0042FF0) - Data: 0D 00 00 00 90 00 00 00 05 00 00 00 B1 00 00 00  returns 0x00 (0001ms, 0658ms total)
T3620 000:691 JLINK_ReadMem (0xE0042FD0, 0x0020 Bytes, ...) -- CPU is running -- CPU_ReadMem(32 bytes @ 0xE0042FD0) - Data: 04 00 00 00 00 00 00 00 00 00 00 00 00 00 00 00 ...  returns 0x00 (0001ms, 0659ms total)
T3620 000:692 JLINK_ReadMem (0xE0043FF0, 0x0010 Bytes, ...) -- CPU is running -- CPU_ReadMem(16 bytes @ 0xE0043FF0) - Data: 0D 00 00 00 90 00 00 00 05 00 00 00 B1 00 00 00  returns 0x00 (0001ms, 0660ms total)
T3620 000:693 JLINK_ReadMem (0xE0043FD0, 0x0020 Bytes, ...) -- CPU is running -- CPU_ReadMem(32 bytes @ 0xE0043FD0) - Data: 04 00 00 00 00 00 00 00 00 00 00 00 00 00 00 00 ...  returns 0x00 (0000ms, 0660ms total)
T3620 000:694 JLINK_ReadMem (0xE00FF020, 0x0020 Bytes, ...) -- CPU is running -- CPU_ReadMem(32 bytes @ 0xE00FF020) - Data: 00 00 00 00 00 00 00 00 00 00 00 00 00 00 00 00 ...  returns 0x00 (0001ms, 0661ms total)
T3620 000:695 JLINK_ReadMemU32(0xE000EF40, 0x0001 Items, ...) -- CPU is running -- CPU_ReadMem(4 bytes @ 0xE000EF40) - Data: 21 00 11 10  returns 0x01 (0000ms, 0661ms total)
T3620 000:695 JLINK_ReadMemU32(0xE000EF44, 0x0001 Items, ...) -- CPU is running -- CPU_ReadMem(4 bytes @ 0xE000EF44) - Data: 11 00 00 11  returns 0x01 (0001ms, 0662ms total)
T3620 000:696 JLINK_ReadMemU32(0xE000ED00, 0x0001 Items, ...) -- CPU is running -- CPU_ReadMem(4 bytes @ 0xE000ED00) - Data: 41 C2 0F 41  returns 0x01 (0001ms, 0663ms total)
T3620 000:697 JLINK_SetResetType(JLINKARM_RESET_TYPE_NORMAL)  returns JLINKARM_RESET_TYPE_SOFT (0000ms, 0663ms total)
T3620 000:697 JLINK_Reset() -- CPU is running -- CPU_WriteMem(4 bytes @ 0xE000EDF0) -- CPU is running -- CPU_WriteMem(4 bytes @ 0xE000EDFC) >0x35 TIF> -- CPU is running -- CPU_WriteMem(4 bytes @ 0xE000ED0C) -- CPU is running -- CPU_ReadMem(4 bytes @ 0xE000EDF0) -- CPU is running -- CPU_ReadMem(4 bytes @ 0xE000EDF0) -- CPU is running -- CPU_WriteMem(4 bytes @ 0xE000EDF0) -- CPU is running -- CPU_WriteMem(4 bytes @ 0xE000EDFC) -- CPU is running -- CPU_ReadMem(4 bytes @ 0xE000EDF0)
 -- CPU_ReadMem(8 bytes @ 0x20000000) -- CPU_WriteMem(8 bytes @ 0x20000000) -- CPU_ReadMem(4 bytes @ 0xE0001000) -- CPU_WriteMem(8 bytes @ 0x20000000) -- CPU_WriteMem(4 bytes @ 0xE0002000) -- CPU_ReadMem(4 bytes @ 0xE000EDFC) -- CPU_ReadMem(4 bytes @ 0xE0001000) (0032ms, 0695ms total)
T3620 000:729 JLINK_Halt()  returns 0x00 (0000ms, 0695ms total)
T3620 000:729 JLINK_IsHalted()  returns TRUE (0000ms, 0695ms total)
T3620 000:729 JLINK_ReadMemU32(0xE000EDF0, 0x0001 Items, ...) -- CPU_ReadMem(4 bytes @ 0xE000EDF0) - Data: 03 00 03 00  returns 0x01 (0001ms, 0696ms total)
T3620 000:730 JLINK_WriteU32(0xE000EDF0, 0xA05F0003) -- CPU_WriteMem(4 bytes @ 0xE000EDF0)  returns 0x00 (0001ms, 0697ms total)
T3620 000:731 JLINK_WriteU32(0xE000EDFC, 0x01000000) -- CPU_WriteMem(4 bytes @ 0xE000EDFC)  returns 0x00 (0001ms, 0698ms total)
T3620 000:740 JLINK_GetHWStatus(...)  returns 0x00 (0001ms, 0699ms total)
T3620 000:746 JLINK_GetNumBPUnits(Type = 0xFFFFFF00)  returns 0x06 (0000ms, 0699ms total)
T3620 000:746 JLINK_GetNumBPUnits(Type = 0xF0)  returns 0x2000 (0000ms, 0699ms total)
T3620 000:746 JLINK_GetNumWPUnits()  returns 0x04 (0000ms, 0699ms total)
T3620 000:752 JLINK_GetSpeed()  returns 0x595 (0000ms, 0699ms total)
T3620 000:753 JLINK_ReadMemU32(0xE000E004, 0x0001 Items, ...) -- CPU_ReadMem(4 bytes @ 0xE000E004) - Data: 02 00 00 00  returns 0x01 (0001ms, 0700ms total)
T3620 000:754 JLINK_ReadMemU32(0xE000E004, 0x0001 Items, ...) -- CPU_ReadMem(4 bytes @ 0xE000E004) - Data: 02 00 00 00  returns 0x01 (0001ms, 0701ms total)
T3620 000:755 JLINK_WriteMem(0xE0001000, 0x001C Bytes, ...) - Data: 01 00 00 00 00 00 00 00 00 00 00 00 00 00 00 00 ... -- CPU_WriteMem(28 bytes @ 0xE0001000)  returns 0x1C (0001ms, 0702ms total)
T3620 000:756 JLINK_ReadMem (0xE0001000, 0x001C Bytes, ...) -- CPU_ReadMem(28 bytes @ 0xE0001000) - Data: 01 00 00 40 00 00 00 00 00 00 00 00 00 00 00 00 ...  returns 0x00 (0001ms, 0703ms total)
T3620 000:757 JLINK_Halt()  returns 0x00 (0000ms, 0703ms total)
T3620 000:757 JLINK_IsHalted()  returns TRUE (0000ms, 0703ms total)
T3620 000:759 JLINK_WriteMem(0x20000000, 0x0510 Bytes, ...) - Data: 00 BE 0A E0 0D 78 2D 06 68 40 08 24 40 00 00 D3 ... -- CPU_WriteMem(1296 bytes @ 0x20000000)  returns 0x510 (0015ms, 0718ms total)
T3620 000:774 JLINK_WriteReg(R0, 0x00000000)  returns 0x00 (0000ms, 0718ms total)
T3620 000:774 JLINK_WriteReg(R1, 0x00B71B00)  returns 0x00 (0000ms, 0718ms total)
T3620 000:774 JLINK_WriteReg(R2, 0x00000001)  returns 0x00 (0000ms, 0718ms total)
T3620 000:774 JLINK_WriteReg(R3, 0x00000000)  returns 0x00 (0000ms, 0718ms total)
T3620 000:774 JLINK_WriteReg(R4, 0x00000000)  returns 0x00 (0000ms, 0718ms total)
T3620 000:774 JLINK_WriteReg(R5, 0x00000000)  returns 0x00 (0000ms, 0718ms total)
T3620 000:774 JLINK_WriteReg(R6, 0x00000000)  returns 0x00 (0000ms, 0718ms total)
T3620 000:774 JLINK_WriteReg(R7, 0x00000000)  returns 0x00 (0000ms, 0718ms total)
T3620 000:774 JLINK_WriteReg(R8, 0x00000000)  returns 0x00 (0000ms, 0718ms total)
T3620 000:774 JLINK_WriteReg(R9, 0x20000508)  returns 0x00 (0000ms, 0718ms total)
T3620 000:774 JLINK_WriteReg(R10, 0x00000000)  returns 0x00 (0000ms, 0718ms total)
T3620 000:774 JLINK_WriteReg(R11, 0x00000000)  returns 0x00 (0000ms, 0718ms total)
T3620 000:774 JLINK_WriteReg(R12, 0x00000000)  returns 0x00 (0000ms, 0718ms total)
T3620 000:774 JLINK_WriteReg(R13 (SP), 0x20001000)  returns 0x00 (0000ms, 0718ms total)
T3620 000:774 JLINK_WriteReg(R14, 0x20000001)  returns 0x00 (0000ms, 0718ms total)
T3620 000:774 JLINK_WriteReg(R15 (PC), 0x20000020)  returns 0x00 (0000ms, 0718ms total)
T3620 000:774 JLINK_WriteReg(XPSR, 0x01000000)  returns 0x00 (0000ms, 0718ms total)
T3620 000:774 JLINK_WriteReg(MSP, 0x20001000)  returns 0x00 (0000ms, 0718ms total)
T3620 000:774 JLINK_WriteReg(PSP, 0x20001000)  returns 0x00 (0000ms, 0718ms total)
T3620 000:774 JLINK_WriteReg(CFBP, 0x00000000)  returns 0x00 (0000ms, 0718ms total)
T3620 000:774 JLINK_SetBPEx(Addr = 0x20000000, Type = 0xFFFFFFF2) -- CPU_ReadMem(2 bytes @ 0x20000000)  returns 0x00000001 (0001ms, 0719ms total)
T3620 000:775 JLINK_Go() -- CPU_WriteMem(2 bytes @ 0x20000000) -- CPU_ReadMem(4 bytes @ 0xE0001000) -- CPU_WriteMem(4 bytes @ 0xE0002008) -- CPU_WriteMem(4 bytes @ 0xE000200C) -- CPU_WriteMem(4 bytes @ 0xE0002010) -- CPU_WriteMem(4 bytes @ 0xE0002014) -- CPU_WriteMem(4 bytes @ 0xE0002018) -- CPU_WriteMem(4 bytes @ 0xE000201C) -- CPU_WriteMem(4 bytes @ 0xE0001004) (0009ms, 0728ms total)
T3620 000:784 JLINK_IsHalted() -- CPU_ReadMem(2 bytes @ 0x20000000)  returns TRUE (0006ms, 0734ms total)
T3620 000:790 JLINK_ReadReg(R15 (PC))  returns 0x20000000 (0000ms, 0728ms total)
T3620 000:790 JLINK_ClrBPEx(BPHandle = 0x00000001)  returns 0x00 (0000ms, 0728ms total)
T3620 000:790 JLINK_ReadReg(R0)  returns 0x00000000 (0000ms, 0728ms total)
T3620 000:790 JLINK_WriteReg(R0, 0x00000000)  returns 0x00 (0000ms, 0728ms total)
T3620 000:791 JLINK_WriteReg(R1, 0x00001000)  returns 0x00 (0000ms, 0728ms total)
T3620 000:791 JLINK_WriteReg(R2, 0x000000FF)  returns 0x00 (0000ms, 0728ms total)
T3620 000:791 JLINK_WriteReg(R3, 0x00000000)  returns 0x00 (0000ms, 0728ms total)
T3620 000:791 JLINK_WriteReg(R4, 0x00000000)  returns 0x00 (0000ms, 0728ms total)
T3620 000:791 JLINK_WriteReg(R5, 0x00000000)  returns 0x00 (0000ms, 0728ms total)
T3620 000:791 JLINK_WriteReg(R6, 0x00000000)  returns 0x00 (0000ms, 0728ms total)
T3620 000:791 JLINK_WriteReg(R7, 0x00000000)  returns 0x00 (0000ms, 0728ms total)
T3620 000:791 JLINK_WriteReg(R8, 0x00000000)  returns 0x00 (0000ms, 0728ms total)
T3620 000:791 JLINK_WriteReg(R9, 0x20000508)  returns 0x00 (0000ms, 0728ms total)
T3620 000:791 JLINK_WriteReg(R10, 0x00000000)  returns 0x00 (0000ms, 0728ms total)
T3620 000:791 JLINK_WriteReg(R11, 0x00000000)  returns 0x00 (0000ms, 0728ms total)
T3620 000:791 JLINK_WriteReg(R12, 0x00000000)  returns 0x00 (0000ms, 0728ms total)
T3620 000:791 JLINK_WriteReg(R13 (SP), 0x20001000)  returns 0x00 (0000ms, 0728ms total)
T3620 000:791 JLINK_WriteReg(R14, 0x20000001)  returns 0x00 (0000ms, 0728ms total)
T3620 000:791 JLINK_WriteReg(R15 (PC), 0x20000078)  returns 0x00 (0000ms, 0728ms total)
T3620 000:791 JLINK_WriteReg(XPSR, 0x01000000)  returns 0x00 (0000ms, 0728ms total)
T3620 000:791 JLINK_WriteReg(MSP, 0x20001000)  returns 0x00 (0000ms, 0728ms total)
T3620 000:791 JLINK_WriteReg(PSP, 0x20001000)  returns 0x00 (0000ms, 0728ms total)
T3620 000:791 JLINK_WriteReg(CFBP, 0x00000000)  returns 0x00 (0000ms, 0728ms total)
T3620 000:791 JLINK_SetBPEx(Addr = 0x20000000, Type = 0xFFFFFFF2)  returns 0x00000002 (0000ms, 0728ms total)
T3620 000:791 JLINK_Go() -- CPU_ReadMem(4 bytes @ 0xE0001000) (0004ms, 0732ms total)
T3620 000:795 JLINK_IsHalted() -- CPU_ReadMem(2 bytes @ 0x20000000)  returns TRUE (0006ms, 0738ms total)
T3620 000:801 JLINK_ReadReg(R15 (PC))  returns 0x20000000 (0000ms, 0732ms total)
T3620 000:801 JLINK_ClrBPEx(BPHandle = 0x00000002)  returns 0x00 (0000ms, 0732ms total)
T3620 000:801 JLINK_ReadReg(R0)  returns 0x00000001 (0000ms, 0732ms total)
T3620 000:801 JLINK_WriteReg(R0, 0x00000000)  returns 0x00 (0000ms, 0732ms total)
T3620 000:801 JLINK_WriteReg(R1, 0x00001000)  returns 0x00 (0000ms, 0732ms total)
T3620 000:801 JLINK_WriteReg(R2, 0x000000FF)  returns 0x00 (0000ms, 0732ms total)
T3620 000:801 JLINK_WriteReg(R3, 0x00000000)  returns 0x00 (0000ms, 0732ms total)
T3620 000:801 JLINK_WriteReg(R4, 0x00000000)  returns 0x00 (0000ms, 0732ms total)
T3620 000:801 JLINK_WriteReg(R5, 0x00000000)  returns 0x00 (0000ms, 0732ms total)
T3620 000:801 JLINK_WriteReg(R6, 0x00000000)  returns 0x00 (0000ms, 0732ms total)
T3620 000:801 JLINK_WriteReg(R7, 0x00000000)  returns 0x00 (0001ms, 0733ms total)
T3620 000:802 JLINK_WriteReg(R8, 0x00000000)  returns 0x00 (0000ms, 0733ms total)
T3620 000:802 JLINK_WriteReg(R9, 0x20000508)  returns 0x00 (0000ms, 0733ms total)
T3620 000:802 JLINK_WriteReg(R10, 0x00000000)  returns 0x00 (0000ms, 0733ms total)
T3620 000:802 JLINK_WriteReg(R11, 0x00000000)  returns 0x00 (0000ms, 0733ms total)
T3620 000:802 JLINK_WriteReg(R12, 0x00000000)  returns 0x00 (0000ms, 0733ms total)
T3620 000:802 JLINK_WriteReg(R13 (SP), 0x20001000)  returns 0x00 (0000ms, 0733ms total)
T3620 000:802 JLINK_WriteReg(R14, 0x20000001)  returns 0x00 (0000ms, 0733ms total)
T3620 000:802 JLINK_WriteReg(R15 (PC), 0x200000CE)  returns 0x00 (0000ms, 0733ms total)
T3620 000:802 JLINK_WriteReg(XPSR, 0x01000000)  returns 0x00 (0000ms, 0733ms total)
T3620 000:802 JLINK_WriteReg(MSP, 0x20001000)  returns 0x00 (0000ms, 0733ms total)
T3620 000:802 JLINK_WriteReg(PSP, 0x20001000)  returns 0x00 (0000ms, 0733ms total)
T3620 000:802 JLINK_WriteReg(CFBP, 0x00000000)  returns 0x00 (0000ms, 0733ms total)
T3620 000:802 JLINK_SetBPEx(Addr = 0x20000000, Type = 0xFFFFFFF2)  returns 0x00000003 (0000ms, 0733ms total)
T3620 000:802 JLINK_Go() -- CPU_ReadMem(4 bytes @ 0xE0001000) (0004ms, 0737ms total)
T3620 000:806 JLINK_IsHalted()  returns FALSE (0000ms, 0737ms total)
T3620 000:819 JLINK_IsHalted() -- CPU_ReadMem(2 bytes @ 0x20000000)  returns TRUE (0006ms, 0743ms total)
T3620 000:825 JLINK_ReadReg(R15 (PC))  returns 0x20000000 (0000ms, 0737ms total)
T3620 000:825 JLINK_ClrBPEx(BPHandle = 0x00000003)  returns 0x00 (0000ms, 0737ms total)
T3620 000:825 JLINK_ReadReg(R0)  returns 0x00000000 (0000ms, 0737ms total)
T3620 000:826 JLINK_WriteReg(R0, 0x00001000)  returns 0x00 (0000ms, 0737ms total)
T3620 000:826 JLINK_WriteReg(R1, 0x00001000)  returns 0x00 (0000ms, 0737ms total)
T3620 000:826 JLINK_WriteReg(R2, 0x000000FF)  returns 0x00 (0000ms, 0737ms total)
T3620 000:826 JLINK_WriteReg(R3, 0x00000000)  returns 0x00 (0000ms, 0737ms total)
T3620 000:826 JLINK_WriteReg(R4, 0x00000000)  returns 0x00 (0000ms, 0737ms total)
T3620 000:826 JLINK_WriteReg(R5, 0x00000000)  returns 0x00 (0000ms, 0737ms total)
T3620 000:826 JLINK_WriteReg(R6, 0x00000000)  returns 0x00 (0000ms, 0737ms total)
T3620 000:826 JLINK_WriteReg(R7, 0x00000000)  returns 0x00 (0000ms, 0737ms total)
T3620 000:826 JLINK_WriteReg(R8, 0x00000000)  returns 0x00 (0000ms, 0737ms total)
T3620 000:826 JLINK_WriteReg(R9, 0x20000508)  returns 0x00 (0000ms, 0737ms total)
T3620 000:826 JLINK_WriteReg(R10, 0x00000000)  returns 0x00 (0000ms, 0737ms total)
T3620 000:826 JLINK_WriteReg(R11, 0x00000000)  returns 0x00 (0000ms, 0737ms total)
T3620 000:826 JLINK_WriteReg(R12, 0x00000000)  returns 0x00 (0000ms, 0737ms total)
T3620 000:826 JLINK_WriteReg(R13 (SP), 0x20001000)  returns 0x00 (0000ms, 0737ms total)
T3620 000:826 JLINK_WriteReg(R14, 0x20000001)  returns 0x00 (0000ms, 0737ms total)
T3620 000:826 JLINK_WriteReg(R15 (PC), 0x20000078)  returns 0x00 (0000ms, 0737ms total)
T3620 000:826 JLINK_WriteReg(XPSR, 0x01000000)  returns 0x00 (0000ms, 0737ms total)
T3620 000:826 JLINK_WriteReg(MSP, 0x20001000)  returns 0x00 (0000ms, 0737ms total)
T3620 000:826 JLINK_WriteReg(PSP, 0x20001000)  returns 0x00 (0000ms, 0737ms total)
T3620 000:826 JLINK_WriteReg(CFBP, 0x00000000)  returns 0x00 (0000ms, 0737ms total)
T3620 000:826 JLINK_SetBPEx(Addr = 0x20000000, Type = 0xFFFFFFF2)  returns 0x00000004 (0000ms, 0737ms total)
T3620 000:826 JLINK_Go() -- CPU_ReadMem(4 bytes @ 0xE0001000) (0004ms, 0741ms total)
T3620 000:830 JLINK_IsHalted() -- CPU_ReadMem(2 bytes @ 0x20000000)  returns TRUE (0006ms, 0747ms total)
T3620 000:836 JLINK_ReadReg(R15 (PC))  returns 0x20000000 (0000ms, 0741ms total)
T3620 000:836 JLINK_ClrBPEx(BPHandle = 0x00000004)  returns 0x00 (0000ms, 0741ms total)
T3620 000:836 JLINK_ReadReg(R0)  returns 0x00000001 (0000ms, 0741ms total)
T3620 000:836 JLINK_WriteReg(R0, 0x00001000)  returns 0x00 (0000ms, 0741ms total)
T3620 000:836 JLINK_WriteReg(R1, 0x00001000)  returns 0x00 (0000ms, 0741ms total)
T3620 000:836 JLINK_WriteReg(R2, 0x000000FF)  returns 0x00 (0000ms, 0741ms total)
T3620 000:836 JLINK_WriteReg(R3, 0x00000000)  returns 0x00 (0000ms, 0741ms total)
T3620 000:837 JLINK_WriteReg(R4, 0x00000000)  returns 0x00 (0000ms, 0742ms total)
T3620 000:837 JLINK_WriteReg(R5, 0x00000000)  returns 0x00 (0000ms, 0742ms total)
T3620 000:837 JLINK_WriteReg(R6, 0x00000000)  returns 0x00 (0000ms, 0742ms total)
T3620 000:837 JLINK_WriteReg(R7, 0x00000000)  returns 0x00 (0000ms, 0742ms total)
T3620 000:837 JLINK_WriteReg(R8, 0x00000000)  returns 0x00 (0000ms, 0742ms total)
T3620 000:837 JLINK_WriteReg(R9, 0x20000508)  returns 0x00 (0000ms, 0742ms total)
T3620 000:837 JLINK_WriteReg(R10, 0x00000000)  returns 0x00 (0000ms, 0742ms total)
T3620 000:837 JLINK_WriteReg(R11, 0x00000000)  returns 0x00 (0000ms, 0742ms total)
T3620 000:837 JLINK_WriteReg(R12, 0x00000000)  returns 0x00 (0000ms, 0742ms total)
T3620 000:837 JLINK_WriteReg(R13 (SP), 0x20001000)  returns 0x00 (0000ms, 0742ms total)
T3620 000:837 JLINK_WriteReg(R14, 0x20000001)  returns 0x00 (0000ms, 0742ms total)
T3620 000:837 JLINK_WriteReg(R15 (PC), 0x200000CE)  returns 0x00 (0000ms, 0742ms total)
T3620 000:837 JLINK_WriteReg(XPSR, 0x01000000)  returns 0x00 (0000ms, 0742ms total)
T3620 000:837 JLINK_WriteReg(MSP, 0x20001000)  returns 0x00 (0000ms, 0742ms total)
T3620 000:837 JLINK_WriteReg(PSP, 0x20001000)  returns 0x00 (0000ms, 0742ms total)
T3620 000:837 JLINK_WriteReg(CFBP, 0x00000000)  returns 0x00 (0000ms, 0742ms total)
T3620 000:837 JLINK_SetBPEx(Addr = 0x20000000, Type = 0xFFFFFFF2)  returns 0x00000005 (0000ms, 0742ms total)
T3620 000:837 JLINK_Go() -- CPU_ReadMem(4 bytes @ 0xE0001000) (0004ms, 0746ms total)
T3620 000:841 JLINK_IsHalted()  returns FALSE (0001ms, 0747ms total)
T3620 000:846 JLINK_IsHalted()  returns FALSE (0000ms, 0746ms total)
T3620 000:847 JLINK_IsHalted() -- CPU_ReadMem(2 bytes @ 0x20000000)  returns TRUE (0006ms, 0752ms total)
T3620 000:853 JLINK_ReadReg(R15 (PC))  returns 0x20000000 (0000ms, 0746ms total)
T3620 000:853 JLINK_ClrBPEx(BPHandle = 0x00000005)  returns 0x00 (0000ms, 0746ms total)
T3620 000:853 JLINK_ReadReg(R0)  returns 0x00000000 (0000ms, 0746ms total)
T3620 000:853 JLINK_WriteReg(R0, 0x00002000)  returns 0x00 (0000ms, 0746ms total)
T3620 000:853 JLINK_WriteReg(R1, 0x00001000)  returns 0x00 (0000ms, 0746ms total)
T3620 000:854 JLINK_WriteReg(R2, 0x000000FF)  returns 0x00 (0000ms, 0747ms total)
T3620 000:854 JLINK_WriteReg(R3, 0x00000000)  returns 0x00 (0000ms, 0747ms total)
T3620 000:854 JLINK_WriteReg(R4, 0x00000000)  returns 0x00 (0000ms, 0747ms total)
T3620 000:854 JLINK_WriteReg(R5, 0x00000000)  returns 0x00 (0000ms, 0747ms total)
T3620 000:854 JLINK_WriteReg(R6, 0x00000000)  returns 0x00 (0000ms, 0747ms total)
T3620 000:854 JLINK_WriteReg(R7, 0x00000000)  returns 0x00 (0000ms, 0747ms total)
T3620 000:854 JLINK_WriteReg(R8, 0x00000000)  returns 0x00 (0000ms, 0747ms total)
T3620 000:854 JLINK_WriteReg(R9, 0x20000508)  returns 0x00 (0000ms, 0747ms total)
T3620 000:854 JLINK_WriteReg(R10, 0x00000000)  returns 0x00 (0000ms, 0747ms total)
T3620 000:854 JLINK_WriteReg(R11, 0x00000000)  returns 0x00 (0000ms, 0747ms total)
T3620 000:854 JLINK_WriteReg(R12, 0x00000000)  returns 0x00 (0000ms, 0747ms total)
T3620 000:854 JLINK_WriteReg(R13 (SP), 0x20001000)  returns 0x00 (0000ms, 0747ms total)
T3620 000:854 JLINK_WriteReg(R14, 0x20000001)  returns 0x00 (0000ms, 0747ms total)
T3620 000:854 JLINK_WriteReg(R15 (PC), 0x20000078)  returns 0x00 (0000ms, 0747ms total)
T3620 000:854 JLINK_WriteReg(XPSR, 0x01000000)  returns 0x00 (0000ms, 0747ms total)
T3620 000:854 JLINK_WriteReg(MSP, 0x20001000)  returns 0x00 (0000ms, 0747ms total)
T3620 000:854 JLINK_WriteReg(PSP, 0x20001000)  returns 0x00 (0000ms, 0747ms total)
T3620 000:854 JLINK_WriteReg(CFBP, 0x00000000)  returns 0x00 (0000ms, 0747ms total)
T3620 000:854 JLINK_SetBPEx(Addr = 0x20000000, Type = 0xFFFFFFF2)  returns 0x00000006 (0000ms, 0747ms total)
T3620 000:854 JLINK_Go() -- CPU_ReadMem(4 bytes @ 0xE0001000) (0004ms, 0751ms total)
T3620 000:858 JLINK_IsHalted() -- CPU_ReadMem(2 bytes @ 0x20000000)  returns TRUE (0006ms, 0757ms total)
T3620 000:864 JLINK_ReadReg(R15 (PC))  returns 0x20000000 (0000ms, 0751ms total)
T3620 000:864 JLINK_ClrBPEx(BPHandle = 0x00000006)  returns 0x00 (0000ms, 0751ms total)
T3620 000:864 JLINK_ReadReg(R0)  returns 0x00000001 (0001ms, 0752ms total)
T3620 000:865 JLINK_WriteReg(R0, 0x00002000)  returns 0x00 (0000ms, 0752ms total)
T3620 000:865 JLINK_WriteReg(R1, 0x00001000)  returns 0x00 (0000ms, 0752ms total)
T3620 000:865 JLINK_WriteReg(R2, 0x000000FF)  returns 0x00 (0000ms, 0752ms total)
T3620 000:865 JLINK_WriteReg(R3, 0x00000000)  returns 0x00 (0000ms, 0752ms total)
T3620 000:865 JLINK_WriteReg(R4, 0x00000000)  returns 0x00 (0000ms, 0752ms total)
T3620 000:865 JLINK_WriteReg(R5, 0x00000000)  returns 0x00 (0000ms, 0752ms total)
T3620 000:865 JLINK_WriteReg(R6, 0x00000000)  returns 0x00 (0000ms, 0752ms total)
T3620 000:865 JLINK_WriteReg(R7, 0x00000000)  returns 0x00 (0000ms, 0752ms total)
T3620 000:865 JLINK_WriteReg(R8, 0x00000000)  returns 0x00 (0000ms, 0752ms total)
T3620 000:865 JLINK_WriteReg(R9, 0x20000508)  returns 0x00 (0000ms, 0752ms total)
T3620 000:865 JLINK_WriteReg(R10, 0x00000000)  returns 0x00 (0000ms, 0752ms total)
T3620 000:865 JLINK_WriteReg(R11, 0x00000000)  returns 0x00 (0000ms, 0752ms total)
T3620 000:865 JLINK_WriteReg(R12, 0x00000000)  returns 0x00 (0000ms, 0752ms total)
T3620 000:865 JLINK_WriteReg(R13 (SP), 0x20001000)  returns 0x00 (0000ms, 0752ms total)
T3620 000:865 JLINK_WriteReg(R14, 0x20000001)  returns 0x00 (0000ms, 0752ms total)
T3620 000:865 JLINK_WriteReg(R15 (PC), 0x200000CE)  returns 0x00 (0000ms, 0752ms total)
T3620 000:865 JLINK_WriteReg(XPSR, 0x01000000)  returns 0x00 (0000ms, 0752ms total)
T3620 000:865 JLINK_WriteReg(MSP, 0x20001000)  returns 0x00 (0000ms, 0752ms total)
T3620 000:865 JLINK_WriteReg(PSP, 0x20001000)  returns 0x00 (0000ms, 0752ms total)
T3620 000:865 JLINK_WriteReg(CFBP, 0x00000000)  returns 0x00 (0000ms, 0752ms total)
T3620 000:865 JLINK_SetBPEx(Addr = 0x20000000, Type = 0xFFFFFFF2)  returns 0x00000007 (0000ms, 0752ms total)
T3620 000:865 JLINK_Go() -- CPU_ReadMem(4 bytes @ 0xE0001000) (0004ms, 0756ms total)
T3620 000:869 JLINK_IsHalted()  returns FALSE (0000ms, 0756ms total)
T3620 000:871 JLINK_IsHalted()  returns FALSE (0000ms, 0756ms total)
T3620 000:872 JLINK_IsHalted()  returns FALSE (0000ms, 0756ms total)
T3620 000:873 JLINK_IsHalted()  returns FALSE (0000ms, 0756ms total)
T3620 000:874 JLINK_IsHalted()  returns FALSE (0000ms, 0756ms total)
T3620 000:875 JLINK_IsHalted() -- CPU_ReadMem(2 bytes @ 0x20000000)  returns TRUE (0006ms, 0762ms total)
T3620 000:881 JLINK_ReadReg(R15 (PC))  returns 0x20000000 (0000ms, 0756ms total)
T3620 000:881 JLINK_ClrBPEx(BPHandle = 0x00000007)  returns 0x00 (0000ms, 0756ms total)
T3620 000:881 JLINK_ReadReg(R0)  returns 0x00000000 (0000ms, 0756ms total)
T3620 000:881 JLINK_WriteReg(R0, 0x00000001)  returns 0x00 (0000ms, 0756ms total)
T3620 000:881 JLINK_WriteReg(R1, 0x00001000)  returns 0x00 (0000ms, 0756ms total)
T3620 000:881 JLINK_WriteReg(R2, 0x000000FF)  returns 0x00 (0000ms, 0756ms total)
T3620 000:881 JLINK_WriteReg(R3, 0x00000000)  returns 0x00 (0000ms, 0756ms total)
T3620 000:881 JLINK_WriteReg(R4, 0x00000000)  returns 0x00 (0000ms, 0756ms total)
T3620 000:881 JLINK_WriteReg(R5, 0x00000000)  returns 0x00 (0000ms, 0756ms total)
T3620 000:881 JLINK_WriteReg(R6, 0x00000000)  returns 0x00 (0000ms, 0756ms total)
T3620 000:881 JLINK_WriteReg(R7, 0x00000000)  returns 0x00 (0001ms, 0757ms total)
T3620 000:882 JLINK_WriteReg(R8, 0x00000000)  returns 0x00 (0000ms, 0757ms total)
T3620 000:882 JLINK_WriteReg(R9, 0x20000508)  returns 0x00 (0000ms, 0757ms total)
T3620 000:882 JLINK_WriteReg(R10, 0x00000000)  returns 0x00 (0000ms, 0757ms total)
T3620 000:882 JLINK_WriteReg(R11, 0x00000000)  returns 0x00 (0000ms, 0757ms total)
T3620 000:882 JLINK_WriteReg(R12, 0x00000000)  returns 0x00 (0000ms, 0757ms total)
T3620 000:882 JLINK_WriteReg(R13 (SP), 0x20001000)  returns 0x00 (0000ms, 0757ms total)
T3620 000:882 JLINK_WriteReg(R14, 0x20000001)  returns 0x00 (0000ms, 0757ms total)
T3620 000:882 JLINK_WriteReg(R15 (PC), 0x20000074)  returns 0x00 (0000ms, 0757ms total)
T3620 000:882 JLINK_WriteReg(XPSR, 0x01000000)  returns 0x00 (0000ms, 0757ms total)
T3620 000:882 JLINK_WriteReg(MSP, 0x20001000)  returns 0x00 (0000ms, 0757ms total)
T3620 000:882 JLINK_WriteReg(PSP, 0x20001000)  returns 0x00 (0000ms, 0757ms total)
T3620 000:882 JLINK_WriteReg(CFBP, 0x00000000)  returns 0x00 (0000ms, 0757ms total)
T3620 000:882 JLINK_SetBPEx(Addr = 0x20000000, Type = 0xFFFFFFF2)  returns 0x00000008 (0000ms, 0757ms total)
T3620 000:882 JLINK_Go() -- CPU_ReadMem(4 bytes @ 0xE0001000) (0003ms, 0760ms total)
T3620 000:886 JLINK_IsHalted() -- CPU_ReadMem(2 bytes @ 0x20000000)  returns TRUE (0006ms, 0767ms total)
T3620 000:892 JLINK_ReadReg(R15 (PC))  returns 0x20000000 (0000ms, 0761ms total)
T3620 000:892 JLINK_ClrBPEx(BPHandle = 0x00000008)  returns 0x00 (0000ms, 0761ms total)
T3620 000:892 JLINK_ReadReg(R0)  returns 0x00000000 (0000ms, 0761ms total)
T3620 000:945 JLINK_WriteMem(0x20000000, 0x0510 Bytes, ...) - Data: 00 BE 0A E0 0D 78 2D 06 68 40 08 24 40 00 00 D3 ... -- CPU_WriteMem(1296 bytes @ 0x20000000)  returns 0x510 (0014ms, 0775ms total)
T3620 000:959 JLINK_WriteReg(R0, 0x00000000)  returns 0x00 (0001ms, 0776ms total)
T3620 000:960 JLINK_WriteReg(R1, 0x00B71B00)  returns 0x00 (0000ms, 0776ms total)
T3620 000:960 JLINK_WriteReg(R2, 0x00000002)  returns 0x00 (0000ms, 0776ms total)
T3620 000:960 JLINK_WriteReg(R3, 0x00000000)  returns 0x00 (0000ms, 0776ms total)
T3620 000:960 JLINK_WriteReg(R4, 0x00000000)  returns 0x00 (0000ms, 0776ms total)
T3620 000:960 JLINK_WriteReg(R5, 0x00000000)  returns 0x00 (0000ms, 0776ms total)
T3620 000:960 JLINK_WriteReg(R6, 0x00000000)  returns 0x00 (0000ms, 0776ms total)
T3620 000:960 JLINK_WriteReg(R7, 0x00000000)  returns 0x00 (0000ms, 0776ms total)
T3620 000:960 JLINK_WriteReg(R8, 0x00000000)  returns 0x00 (0000ms, 0776ms total)
T3620 000:960 JLINK_WriteReg(R9, 0x20000508)  returns 0x00 (0000ms, 0776ms total)
T3620 000:960 JLINK_WriteReg(R10, 0x00000000)  returns 0x00 (0000ms, 0776ms total)
T3620 000:960 JLINK_WriteReg(R11, 0x00000000)  returns 0x00 (0000ms, 0776ms total)
T3620 000:960 JLINK_WriteReg(R12, 0x00000000)  returns 0x00 (0000ms, 0776ms total)
T3620 000:960 JLINK_WriteReg(R13 (SP), 0x20001000)  returns 0x00 (0000ms, 0776ms total)
T3620 000:960 JLINK_WriteReg(R14, 0x20000001)  returns 0x00 (0000ms, 0776ms total)
T3620 000:960 JLINK_WriteReg(R15 (PC), 0x20000020)  returns 0x00 (0000ms, 0776ms total)
T3620 000:960 JLINK_WriteReg(XPSR, 0x01000000)  returns 0x00 (0000ms, 0776ms total)
T3620 000:960 JLINK_WriteReg(MSP, 0x20001000)  returns 0x00 (0000ms, 0776ms total)
T3620 000:960 JLINK_WriteReg(PSP, 0x20001000)  returns 0x00 (0000ms, 0776ms total)
T3620 000:960 JLINK_WriteReg(CFBP, 0x00000000)  returns 0x00 (0000ms, 0776ms total)
T3620 000:960 JLINK_SetBPEx(Addr = 0x20000000, Type = 0xFFFFFFF2) -- CPU_ReadMem(2 bytes @ 0x20000000)  returns 0x00000009 (0001ms, 0777ms total)
T3620 000:961 JLINK_Go() -- CPU_WriteMem(2 bytes @ 0x20000000) -- CPU_ReadMem(4 bytes @ 0xE0001000) (0003ms, 0780ms total)
T3620 000:965 JLINK_IsHalted() -- CPU_ReadMem(2 bytes @ 0x20000000)  returns TRUE (0006ms, 0787ms total)
T3620 000:971 JLINK_ReadReg(R15 (PC))  returns 0x20000000 (0000ms, 0781ms total)
T3620 000:971 JLINK_ClrBPEx(BPHandle = 0x00000009)  returns 0x00 (0000ms, 0781ms total)
T3620 000:971 JLINK_ReadReg(R0)  returns 0x00000000 (0000ms, 0781ms total)
T3620 000:971 JLINK_WriteMem(0x20000538, 0x0200 Bytes, ...) - Data: 18 09 00 20 D3 04 00 00 DF 04 00 00 E1 04 00 00 ... -- CPU_WriteMem(512 bytes @ 0x20000538)  returns 0x200 (0006ms, 0787ms total)
T3620 000:977 JLINK_WriteReg(R0, 0x00000000)  returns 0x00 (0000ms, 0787ms total)
T3620 000:977 JLINK_WriteReg(R1, 0x00000200)  returns 0x00 (0000ms, 0787ms total)
T3620 000:977 JLINK_WriteReg(R2, 0x20000538)  returns 0x00 (0001ms, 0788ms total)
T3620 000:978 JLINK_WriteReg(R3, 0x00000000)  returns 0x00 (0000ms, 0788ms total)
T3620 000:978 JLINK_WriteReg(R4, 0x00000000)  returns 0x00 (0000ms, 0788ms total)
T3620 000:978 JLINK_WriteReg(R5, 0x00000000)  returns 0x00 (0000ms, 0788ms total)
T3620 000:978 JLINK_WriteReg(R6, 0x00000000)  returns 0x00 (0000ms, 0788ms total)
T3620 000:978 JLINK_WriteReg(R7, 0x00000000)  returns 0x00 (0000ms, 0788ms total)
T3620 000:978 JLINK_WriteReg(R8, 0x00000000)  returns 0x00 (0000ms, 0788ms total)
T3620 000:978 JLINK_WriteReg(R9, 0x20000508)  returns 0x00 (0000ms, 0788ms total)
T3620 000:978 JLINK_WriteReg(R10, 0x00000000)  returns 0x00 (0000ms, 0788ms total)
T3620 000:978 JLINK_WriteReg(R11, 0x00000000)  returns 0x00 (0000ms, 0788ms total)
T3620 000:978 JLINK_WriteReg(R12, 0x00000000)  returns 0x00 (0000ms, 0788ms total)
T3620 000:978 JLINK_WriteReg(R13 (SP), 0x20001000)  returns 0x00 (0000ms, 0788ms total)
T3620 000:978 JLINK_WriteReg(R14, 0x20000001)  returns 0x00 (0000ms, 0788ms total)
T3620 000:978 JLINK_WriteReg(R15 (PC), 0x200000E2)  returns 0x00 (0000ms, 0788ms total)
T3620 000:978 JLINK_WriteReg(XPSR, 0x01000000)  returns 0x00 (0000ms, 0788ms total)
T3620 000:978 JLINK_WriteReg(MSP, 0x20001000)  returns 0x00 (0000ms, 0788ms total)
T3620 000:978 JLINK_WriteReg(PSP, 0x20001000)  returns 0x00 (0000ms, 0788ms total)
T3620 000:978 JLINK_WriteReg(CFBP, 0x00000000)  returns 0x00 (0000ms, 0788ms total)
T3620 000:978 JLINK_SetBPEx(Addr = 0x20000000, Type = 0xFFFFFFF2)  returns 0x0000000A (0000ms, 0788ms total)
T3620 000:978 JLINK_Go() -- CPU_ReadMem(4 bytes @ 0xE0001000) (0004ms, 0792ms total)
T3620 000:982 JLINK_IsHalted()  returns FALSE (0000ms, 0792ms total)
T3620 000:989 JLINK_IsHalted() -- CPU_ReadMem(2 bytes @ 0x20000000)  returns TRUE (0006ms, 0798ms total)
T3620 000:995 JLINK_ReadReg(R15 (PC))  returns 0x20000000 (0000ms, 0792ms total)
T3620 000:995 JLINK_ClrBPEx(BPHandle = 0x0000000A)  returns 0x00 (0000ms, 0792ms total)
T3620 000:995 JLINK_ReadReg(R0)  returns 0x00000000 (0000ms, 0792ms total)
T3620 000:995 JLINK_WriteMem(0x20000538, 0x0200 Bytes, ...) - Data: F1 04 00 00 F1 04 00 00 F1 04 00 00 F1 04 00 00 ... -- CPU_WriteMem(512 bytes @ 0x20000538)  returns 0x200 (0006ms, 0798ms total)
T3620 001:001 JLINK_WriteReg(R0, 0x00000200)  returns 0x00 (0001ms, 0799ms total)
T3620 001:002 JLINK_WriteReg(R1, 0x00000200)  returns 0x00 (0000ms, 0799ms total)
T3620 001:002 JLINK_WriteReg(R2, 0x20000538)  returns 0x00 (0000ms, 0799ms total)
T3620 001:002 JLINK_WriteReg(R3, 0x00000000)  returns 0x00 (0000ms, 0799ms total)
T3620 001:002 JLINK_WriteReg(R4, 0x00000000)  returns 0x00 (0000ms, 0799ms total)
T3620 001:002 JLINK_WriteReg(R5, 0x00000000)  returns 0x00 (0000ms, 0799ms total)
T3620 001:002 JLINK_WriteReg(R6, 0x00000000)  returns 0x00 (0000ms, 0799ms total)
T3620 001:002 JLINK_WriteReg(R7, 0x00000000)  returns 0x00 (0000ms, 0799ms total)
T3620 001:002 JLINK_WriteReg(R8, 0x00000000)  returns 0x00 (0000ms, 0799ms total)
T3620 001:002 JLINK_WriteReg(R9, 0x20000508)  returns 0x00 (0000ms, 0799ms total)
T3620 001:002 JLINK_WriteReg(R10, 0x00000000)  returns 0x00 (0000ms, 0799ms total)
T3620 001:002 JLINK_WriteReg(R11, 0x00000000)  returns 0x00 (0000ms, 0799ms total)
T3620 001:002 JLINK_WriteReg(R12, 0x00000000)  returns 0x00 (0000ms, 0799ms total)
T3620 001:002 JLINK_WriteReg(R13 (SP), 0x20001000)  returns 0x00 (0000ms, 0799ms total)
T3620 001:002 JLINK_WriteReg(R14, 0x20000001)  returns 0x00 (0000ms, 0799ms total)
T3620 001:002 JLINK_WriteReg(R15 (PC), 0x200000E2)  returns 0x00 (0000ms, 0799ms total)
T3620 001:002 JLINK_WriteReg(XPSR, 0x01000000)  returns 0x00 (0000ms, 0799ms total)
T3620 001:002 JLINK_WriteReg(MSP, 0x20001000)  returns 0x00 (0000ms, 0799ms total)
T3620 001:002 JLINK_WriteReg(PSP, 0x20001000)  returns 0x00 (0000ms, 0799ms total)
T3620 001:002 JLINK_WriteReg(CFBP, 0x00000000)  returns 0x00 (0001ms, 0800ms total)
T3620 001:003 JLINK_SetBPEx(Addr = 0x20000000, Type = 0xFFFFFFF2)  returns 0x0000000B (0000ms, 0800ms total)
T3620 001:003 JLINK_Go() -- CPU_ReadMem(4 bytes @ 0xE0001000) (0003ms, 0803ms total)
T3620 001:006 JLINK_IsHalted()  returns FALSE (0001ms, 0804ms total)
T3620 001:008 JLINK_IsHalted()  returns FALSE (0000ms, 0803ms total)
T3620 001:010 JLINK_IsHalted()  returns FALSE (0000ms, 0803ms total)
T3620 001:011 JLINK_IsHalted()  returns FALSE (0000ms, 0803ms total)
T3620 001:012 JLINK_IsHalted()  returns FALSE (0000ms, 0803ms total)
T3620 001:013 JLINK_IsHalted() -- CPU_ReadMem(2 bytes @ 0x20000000)  returns TRUE (0006ms, 0809ms total)
T3620 001:019 JLINK_ReadReg(R15 (PC))  returns 0x20000000 (0000ms, 0803ms total)
T3620 001:019 JLINK_ClrBPEx(BPHandle = 0x0000000B)  returns 0x00 (0000ms, 0803ms total)
T3620 001:019 JLINK_ReadReg(R0)  returns 0x00000000 (0000ms, 0803ms total)
T3620 001:019 JLINK_WriteMem(0x20000538, 0x0200 Bytes, ...) - Data: FF FF FF FF FF FF FF FF FF FF FF FF FE FF FF FF ... -- CPU_WriteMem(512 bytes @ 0x20000538)  returns 0x200 (0006ms, 0809ms total)
T3620 001:025 JLINK_WriteReg(R0, 0x00000400)  returns 0x00 (0000ms, 0809ms total)
T3620 001:025 JLINK_WriteReg(R1, 0x00000200)  returns 0x00 (0000ms, 0809ms total)
T3620 001:025 JLINK_WriteReg(R2, 0x20000538)  returns 0x00 (0000ms, 0809ms total)
T3620 001:025 JLINK_WriteReg(R3, 0x00000000)  returns 0x00 (0000ms, 0809ms total)
T3620 001:025 JLINK_WriteReg(R4, 0x00000000)  returns 0x00 (0000ms, 0809ms total)
T3620 001:025 JLINK_WriteReg(R5, 0x00000000)  returns 0x00 (0000ms, 0809ms total)
T3620 001:025 JLINK_WriteReg(R6, 0x00000000)  returns 0x00 (0001ms, 0810ms total)
T3620 001:026 JLINK_WriteReg(R7, 0x00000000)  returns 0x00 (0000ms, 0810ms total)
T3620 001:026 JLINK_WriteReg(R8, 0x00000000)  returns 0x00 (0000ms, 0810ms total)
T3620 001:026 JLINK_WriteReg(R9, 0x20000508)  returns 0x00 (0000ms, 0810ms total)
T3620 001:026 JLINK_WriteReg(R10, 0x00000000)  returns 0x00 (0000ms, 0810ms total)
T3620 001:026 JLINK_WriteReg(R11, 0x00000000)  returns 0x00 (0000ms, 0810ms total)
T3620 001:026 JLINK_WriteReg(R12, 0x00000000)  returns 0x00 (0000ms, 0810ms total)
T3620 001:026 JLINK_WriteReg(R13 (SP), 0x20001000)  returns 0x00 (0000ms, 0810ms total)
T3620 001:026 JLINK_WriteReg(R14, 0x20000001)  returns 0x00 (0000ms, 0810ms total)
T3620 001:026 JLINK_WriteReg(R15 (PC), 0x200000E2)  returns 0x00 (0000ms, 0810ms total)
T3620 001:026 JLINK_WriteReg(XPSR, 0x01000000)  returns 0x00 (0000ms, 0810ms total)
T3620 001:026 JLINK_WriteReg(MSP, 0x20001000)  returns 0x00 (0000ms, 0810ms total)
T3620 001:026 JLINK_WriteReg(PSP, 0x20001000)  returns 0x00 (0000ms, 0810ms total)
T3620 001:026 JLINK_WriteReg(CFBP, 0x00000000)  returns 0x00 (0000ms, 0810ms total)
T3620 001:026 JLINK_SetBPEx(Addr = 0x20000000, Type = 0xFFFFFFF2)  returns 0x0000000C (0000ms, 0810ms total)
T3620 001:026 JLINK_Go() -- CPU_ReadMem(4 bytes @ 0xE0001000) (0003ms, 0813ms total)
T3620 001:029 JLINK_IsHalted()  returns FALSE (0001ms, 0814ms total)
T3620 001:031 JLINK_IsHalted()  returns FALSE (0000ms, 0813ms total)
T3620 001:032 JLINK_IsHalted()  returns FALSE (0000ms, 0813ms total)
T3620 001:033 JLINK_IsHalted()  returns FALSE (0000ms, 0813ms total)
T3620 001:034 JLINK_IsHalted()  returns FALSE (0000ms, 0813ms total)
T3620 001:035 JLINK_IsHalted()  returns FALSE (0000ms, 0813ms total)
T3620 001:036 JLINK_IsHalted() -- CPU_ReadMem(2 bytes @ 0x20000000)  returns TRUE (0006ms, 0819ms total)
T3620 001:042 JLINK_ReadReg(R15 (PC))  returns 0x20000000 (0000ms, 0813ms total)
T3620 001:042 JLINK_ClrBPEx(BPHandle = 0x0000000C)  returns 0x00 (0000ms, 0813ms total)
T3620 001:042 JLINK_ReadReg(R0)  returns 0x00000000 (0000ms, 0813ms total)
T3620 001:042 JLINK_WriteMem(0x20000538, 0x0200 Bytes, ...) - Data: F3 D1 23 46 2A 46 30 46 BD E8 F0 41 00 F0 0B B8 ... -- CPU_WriteMem(512 bytes @ 0x20000538)  returns 0x200 (0006ms, 0819ms total)
T3620 001:048 JLINK_WriteReg(R0, 0x00000600)  returns 0x00 (0000ms, 0819ms total)
T3620 001:048 JLINK_WriteReg(R1, 0x00000200)  returns 0x00 (0000ms, 0819ms total)
T3620 001:048 JLINK_WriteReg(R2, 0x20000538)  returns 0x00 (0000ms, 0819ms total)
T3620 001:048 JLINK_WriteReg(R3, 0x00000000)  returns 0x00 (0000ms, 0819ms total)
T3620 001:048 JLINK_WriteReg(R4, 0x00000000)  returns 0x00 (0000ms, 0819ms total)
T3620 001:048 JLINK_WriteReg(R5, 0x00000000)  returns 0x00 (0000ms, 0819ms total)
T3620 001:049 JLINK_WriteReg(R6, 0x00000000)  returns 0x00 (0000ms, 0820ms total)
T3620 001:049 JLINK_WriteReg(R7, 0x00000000)  returns 0x00 (0000ms, 0820ms total)
T3620 001:049 JLINK_WriteReg(R8, 0x00000000)  returns 0x00 (0000ms, 0820ms total)
T3620 001:049 JLINK_WriteReg(R9, 0x20000508)  returns 0x00 (0000ms, 0820ms total)
T3620 001:049 JLINK_WriteReg(R10, 0x00000000)  returns 0x00 (0000ms, 0820ms total)
T3620 001:049 JLINK_WriteReg(R11, 0x00000000)  returns 0x00 (0000ms, 0820ms total)
T3620 001:049 JLINK_WriteReg(R12, 0x00000000)  returns 0x00 (0000ms, 0820ms total)
T3620 001:049 JLINK_WriteReg(R13 (SP), 0x20001000)  returns 0x00 (0000ms, 0820ms total)
T3620 001:049 JLINK_WriteReg(R14, 0x20000001)  returns 0x00 (0000ms, 0820ms total)
T3620 001:049 JLINK_WriteReg(R15 (PC), 0x200000E2)  returns 0x00 (0000ms, 0820ms total)
T3620 001:049 JLINK_WriteReg(XPSR, 0x01000000)  returns 0x00 (0000ms, 0820ms total)
T3620 001:049 JLINK_WriteReg(MSP, 0x20001000)  returns 0x00 (0000ms, 0820ms total)
T3620 001:049 JLINK_WriteReg(PSP, 0x20001000)  returns 0x00 (0000ms, 0820ms total)
T3620 001:049 JLINK_WriteReg(CFBP, 0x00000000)  returns 0x00 (0000ms, 0820ms total)
T3620 001:049 JLINK_SetBPEx(Addr = 0x20000000, Type = 0xFFFFFFF2)  returns 0x0000000D (0000ms, 0820ms total)
T3620 001:049 JLINK_Go() -- CPU_ReadMem(4 bytes @ 0xE0001000) (0004ms, 0824ms total)
T3620 001:053 JLINK_IsHalted()  returns FALSE (0000ms, 0824ms total)
T3620 001:054 JLINK_IsHalted()  returns FALSE (0000ms, 0824ms total)
T3620 001:055 JLINK_IsHalted()  returns FALSE (0000ms, 0824ms total)
T3620 001:056 JLINK_IsHalted()  returns FALSE (0000ms, 0824ms total)
T3620 001:057 JLINK_IsHalted()  returns FALSE (0000ms, 0824ms total)
T3620 001:058 JLINK_IsHalted()  returns FALSE (0000ms, 0824ms total)
T3620 001:059 JLINK_IsHalted() -- CPU_ReadMem(2 bytes @ 0x20000000)  returns TRUE (0006ms, 0830ms total)
T3620 001:065 JLINK_ReadReg(R15 (PC))  returns 0x20000000 (0000ms, 0824ms total)
T3620 001:065 JLINK_ClrBPEx(BPHandle = 0x0000000D)  returns 0x00 (0000ms, 0824ms total)
T3620 001:065 JLINK_ReadReg(R0)  returns 0x00000000 (0000ms, 0824ms total)
T3620 001:065 JLINK_WriteMem(0x20000538, 0x0200 Bytes, ...) - Data: 05 D4 00 F0 9D F9 30 32 62 55 6D 1E F9 D5 B3 46 ... -- CPU_WriteMem(512 bytes @ 0x20000538)  returns 0x200 (0006ms, 0830ms total)
T3620 001:071 JLINK_WriteReg(R0, 0x00000800)  returns 0x00 (0000ms, 0830ms total)
T3620 001:071 JLINK_WriteReg(R1, 0x00000200)  returns 0x00 (0000ms, 0830ms total)
T3620 001:071 JLINK_WriteReg(R2, 0x20000538)  returns 0x00 (0000ms, 0830ms total)
T3620 001:072 JLINK_WriteReg(R3, 0x00000000)  returns 0x00 (0000ms, 0831ms total)
T3620 001:072 JLINK_WriteReg(R4, 0x00000000)  returns 0x00 (0000ms, 0831ms total)
T3620 001:072 JLINK_WriteReg(R5, 0x00000000)  returns 0x00 (0000ms, 0831ms total)
T3620 001:072 JLINK_WriteReg(R6, 0x00000000)  returns 0x00 (0000ms, 0831ms total)
T3620 001:072 JLINK_WriteReg(R7, 0x00000000)  returns 0x00 (0000ms, 0831ms total)
T3620 001:072 JLINK_WriteReg(R8, 0x00000000)  returns 0x00 (0000ms, 0831ms total)
T3620 001:072 JLINK_WriteReg(R9, 0x20000508)  returns 0x00 (0000ms, 0831ms total)
T3620 001:072 JLINK_WriteReg(R10, 0x00000000)  returns 0x00 (0000ms, 0831ms total)
T3620 001:072 JLINK_WriteReg(R11, 0x00000000)  returns 0x00 (0000ms, 0831ms total)
T3620 001:072 JLINK_WriteReg(R12, 0x00000000)  returns 0x00 (0000ms, 0831ms total)
T3620 001:072 JLINK_WriteReg(R13 (SP), 0x20001000)  returns 0x00 (0000ms, 0831ms total)
T3620 001:072 JLINK_WriteReg(R14, 0x20000001)  returns 0x00 (0000ms, 0831ms total)
T3620 001:072 JLINK_WriteReg(R15 (PC), 0x200000E2)  returns 0x00 (0000ms, 0831ms total)
T3620 001:072 JLINK_WriteReg(XPSR, 0x01000000)  returns 0x00 (0000ms, 0831ms total)
T3620 001:072 JLINK_WriteReg(MSP, 0x20001000)  returns 0x00 (0000ms, 0831ms total)
T3620 001:072 JLINK_WriteReg(PSP, 0x20001000)  returns 0x00 (0000ms, 0831ms total)
T3620 001:072 JLINK_WriteReg(CFBP, 0x00000000)  returns 0x00 (0000ms, 0831ms total)
T3620 001:072 JLINK_SetBPEx(Addr = 0x20000000, Type = 0xFFFFFFF2)  returns 0x0000000E (0000ms, 0831ms total)
T3620 001:072 JLINK_Go() -- CPU_ReadMem(4 bytes @ 0xE0001000) (0004ms, 0835ms total)
T3620 001:076 JLINK_IsHalted()  returns FALSE (0001ms, 0836ms total)
T3620 001:080 JLINK_IsHalted()  returns FALSE (0000ms, 0835ms total)
T3620 001:081 JLINK_IsHalted()  returns FALSE (0000ms, 0835ms total)
T3620 001:082 JLINK_IsHalted()  returns FALSE (0000ms, 0835ms total)
T3620 001:083 JLINK_IsHalted() -- CPU_ReadMem(2 bytes @ 0x20000000)  returns TRUE (0006ms, 0841ms total)
T3620 001:089 JLINK_ReadReg(R15 (PC))  returns 0x20000000 (0000ms, 0835ms total)
T3620 001:089 JLINK_ClrBPEx(BPHandle = 0x0000000E)  returns 0x00 (0000ms, 0835ms total)
T3620 001:089 JLINK_ReadReg(R0)  returns 0x00000000 (0000ms, 0835ms total)
T3620 001:089 JLINK_WriteMem(0x20000538, 0x0200 Bytes, ...) - Data: 0A 21 02 1E A0 F1 01 00 00 DC 5F B1 97 FB F1 FC ... -- CPU_WriteMem(512 bytes @ 0x20000538)  returns 0x200 (0006ms, 0841ms total)
T3620 001:095 JLINK_WriteReg(R0, 0x00000A00)  returns 0x00 (0000ms, 0841ms total)
T3620 001:095 JLINK_WriteReg(R1, 0x00000200)  returns 0x00 (0000ms, 0841ms total)
T3620 001:095 JLINK_WriteReg(R2, 0x20000538)  returns 0x00 (0000ms, 0841ms total)
T3620 001:095 JLINK_WriteReg(R3, 0x00000000)  returns 0x00 (0001ms, 0842ms total)
T3620 001:096 JLINK_WriteReg(R4, 0x00000000)  returns 0x00 (0000ms, 0842ms total)
T3620 001:096 JLINK_WriteReg(R5, 0x00000000)  returns 0x00 (0000ms, 0842ms total)
T3620 001:096 JLINK_WriteReg(R6, 0x00000000)  returns 0x00 (0000ms, 0842ms total)
T3620 001:096 JLINK_WriteReg(R7, 0x00000000)  returns 0x00 (0000ms, 0842ms total)
T3620 001:096 JLINK_WriteReg(R8, 0x00000000)  returns 0x00 (0000ms, 0842ms total)
T3620 001:096 JLINK_WriteReg(R9, 0x20000508)  returns 0x00 (0000ms, 0842ms total)
T3620 001:096 JLINK_WriteReg(R10, 0x00000000)  returns 0x00 (0000ms, 0842ms total)
T3620 001:096 JLINK_WriteReg(R11, 0x00000000)  returns 0x00 (0000ms, 0842ms total)
T3620 001:096 JLINK_WriteReg(R12, 0x00000000)  returns 0x00 (0000ms, 0842ms total)
T3620 001:096 JLINK_WriteReg(R13 (SP), 0x20001000)  returns 0x00 (0000ms, 0842ms total)
T3620 001:096 JLINK_WriteReg(R14, 0x20000001)  returns 0x00 (0000ms, 0842ms total)
T3620 001:096 JLINK_WriteReg(R15 (PC), 0x200000E2)  returns 0x00 (0000ms, 0842ms total)
T3620 001:096 JLINK_WriteReg(XPSR, 0x01000000)  returns 0x00 (0000ms, 0842ms total)
T3620 001:096 JLINK_WriteReg(MSP, 0x20001000)  returns 0x00 (0000ms, 0842ms total)
T3620 001:096 JLINK_WriteReg(PSP, 0x20001000)  returns 0x00 (0000ms, 0842ms total)
T3620 001:096 JLINK_WriteReg(CFBP, 0x00000000)  returns 0x00 (0000ms, 0842ms total)
T3620 001:096 JLINK_SetBPEx(Addr = 0x20000000, Type = 0xFFFFFFF2)  returns 0x0000000F (0000ms, 0842ms total)
T3620 001:096 JLINK_Go() -- CPU_ReadMem(4 bytes @ 0xE0001000) (0004ms, 0846ms total)
T3620 001:100 JLINK_IsHalted()  returns FALSE (0000ms, 0846ms total)
T3620 001:102 JLINK_IsHalted()  returns FALSE (0000ms, 0846ms total)
T3620 001:103 JLINK_IsHalted()  returns FALSE (0000ms, 0846ms total)
T3620 001:104 JLINK_IsHalted()  returns FALSE (0000ms, 0846ms total)
T3620 001:105 JLINK_IsHalted()  returns FALSE (0000ms, 0846ms total)
T3620 001:106 JLINK_IsHalted() -- CPU_ReadMem(2 bytes @ 0x20000000)  returns TRUE (0006ms, 0852ms total)
T3620 001:112 JLINK_ReadReg(R15 (PC))  returns 0x20000000 (0000ms, 0846ms total)
T3620 001:112 JLINK_ClrBPEx(BPHandle = 0x0000000F)  returns 0x00 (0000ms, 0846ms total)
T3620 001:112 JLINK_ReadReg(R0)  returns 0x00000000 (0000ms, 0846ms total)
T3620 001:112 JLINK_WriteMem(0x20000538, 0x0200 Bytes, ...) - Data: 40 1E A0 61 20 46 AF F3 00 80 4F B1 D4 E9 01 21 ... -- CPU_WriteMem(512 bytes @ 0x20000538)  returns 0x200 (0006ms, 0852ms total)
T3620 001:118 JLINK_WriteReg(R0, 0x00000C00)  returns 0x00 (0000ms, 0852ms total)
